
T1468 000:535 SEGGER J-Link V4.15n (beta) Log File (0000ms, 0530ms total)
T1468 000:535 DLL Compiled: Jun 18 2010 19:55:09 (0000ms, 0530ms total)
T1468 000:535 Logging started @ 2013-12-19 10:06 (0000ms, 0530ms total)
T1468 000:535 JLINK_SetWarnOutHandler(...) (0000ms, 0530ms total)
T1468 000:535 JLINK_OpenEx(...)
Firmware: J-Link ARM V8 compiled Sep 22 2011 16:23:23
Hardware: V8.00
S/N: 20100214
Feature(s): RDI,FlashDL,FlashBP,JFlash,GDBFull  returns O.K. (0110ms, 0530ms total)
T1468 000:645 JLINK_SetErrorOutHandler(...) (0000ms, 0640ms total)
T1468 000:645 JLINK_ExecCommand("ProjectFile = "E:\9¡¢GD32107C-EVAL\4¡¢SPI---GD25Q16 SPI-Flash¶ÁÐ´\STM32F10x_StdPeriph_Lib_V3.5.0\Project\MDK-ARM\JLinkSettings.ini"", ...)  returns 0x00 (0000ms, 0640ms total)
T1468 000:650 JLINK_ExecCommand("DisableConnectionTimeout", ...)  returns 0x00 (0000ms, 0640ms total)
T1468 000:650 JLINK_TIF_Select(JLINKARM_TIF_JTAG)  returns 0x00 (0000ms, 0640ms total)
T1468 000:650 JLINK_SetSpeed(2000) (0001ms, 0640ms total)
T1468 000:651 JLINK_GetHardwareVersion()  returns 0x13880 (0000ms, 0641ms total)
T1468 000:651 JLINK_GetDLLVersion()  returns 41514 (0000ms, 0641ms total)
T1468 000:651 JLINK_GetFirmwareString(...) (0000ms, 0641ms total)
T1468 000:668 JLINK_GetDLLVersion()  returns 41514 (0000ms, 0641ms total)
T1468 000:668 JLINK_GetCompileDateTime() (0000ms, 0641ms total)
T1468 000:670 JLINK_GetFirmwareString(...) (0000ms, 0641ms total)
T1468 000:672 JLINK_GetHardwareVersion()  returns 0x13880 (0000ms, 0641ms total)
T1468 000:680 JLINK_Reset() >0x2F8 JTAG>TotalIRLen = 9, IRPrint = 0x0011 >0x30 JTAG> >0x210 JTAG> >0x118 JTAG> >0xD8 JTAG> >0x198 JTAG> >0x38 JTAG> >0x118 JTAG> >0xD8 JTAG> >0x2F0 JTAG> >0x2F0 JTAG> >0x198 JTAG> >0x198 JTAG>Found Cortex-M3 r2p1, Little endian. >0xD8 JTAG> >0x240 JTAG> >0x198 JTAG> >0x198 JTAG>TPIU fitted. >0x198 JTAG>ETM fitted. >0x198 JTAG>  FPUnit: 6 code (BP) slots and 2 literal slots >0x198 JTAG> >0x250 JTAG> >0x240 JTAG> >0x280 JTAG> >0x198 JTAG> >0x198 JTAG> >0x240 JTAG>
 >0x240 JTAG> >0x198 JTAG> >0x198 JTAG> >0x17A8 JTAG> >0x240 JTAG> >0x198 JTAG> >0x17A8 JTAG> >0x198 JTAG> -- CPU_WriteMem(4 bytes @ 0xE000EDFC) -- CPU_WriteMem(4 bytes @ 0xE0001028) -- CPU_WriteMem(4 bytes @ 0xE0001038) -- CPU_WriteMem(4 bytes @ 0xE0001048) -- CPU_WriteMem(4 bytes @ 0xE0001058) (0160ms, 0641ms total)
T1468 000:840 JLINK_GetIdData(...) ScanLen=9 NumDevices=2 aId[0]=0x4BA00477 aIrRead[0]=0 aScanLen[0]=0 aScanRead[0]=0 (0000ms, 0801ms total)
T1468 000:840 JLINK_JTAG_GetDeviceID(DeviceIndex = 0)  returns 0x4BA00477 (0000ms, 0801ms total)
T1468 000:840 JLINK_JTAG_GetDeviceInfo(DeviceIndex = 0)  returns 0x00 (0000ms, 0801ms total)
T1468 000:841 JLINK_JTAG_GetDeviceID(DeviceIndex = 1)  returns 0x790007A3 (0000ms, 0801ms total)
T1468 000:841 JLINK_JTAG_GetDeviceInfo(DeviceIndex = 1)  returns 0x01 (0000ms, 0801ms total)
T1468 000:841 JLINK_GetDebugInfo(0x100) -- Value=0xE00FF003  returns 0x00 (0000ms, 0801ms total)
T1468 000:844 JLINK_ReadMem (0xE00FF000, 0x0018 Bytes, ...) -- CPU_ReadMem(24 bytes @ 0xE00FF000) -- Data:  03 F0 F0 FF 03 20 F0 FF 03 30 F0 FF 03 10 F0 FF ...  returns 0x00 (0002ms, 0801ms total)
T1468 000:846 JLINK_ReadMemU32(0xE000ED00, 0x0001 Items, ...) -- CPU_ReadMem(4 bytes @ 0xE000ED00) -- Data:  31 C2 2F 41  returns 0x01 (0001ms, 0803ms total)
T1468 000:847 JLINK_Halt()  returns 0x00 (0000ms, 0804ms total)
T1468 000:847 JLINK_IsHalted()  returns TRUE (0000ms, 0804ms total)
T1468 000:847 JLINK_ReadMemU32(0xE000EDF0, 0x0001 Items, ...) -- CPU_ReadMem(4 bytes @ 0xE000EDF0) -- Data:  03 00 03 00  returns 0x01 (0002ms, 0804ms total)
T1468 000:849 JLINK_WriteU32(0xE000EDF0, 0xA05F0003) -- CPU_WriteMem(4 bytes @ 0xE000EDF0)  returns 0x00 (0001ms, 0806ms total)
T1468 000:850 JLINK_WriteU32(0xE000EDFC, 0x01000000) -- CPU_WriteMem(4 bytes @ 0xE000EDFC)  returns 0x00 (0001ms, 0807ms total)
T1468 000:851 JLINK_ReadMemU32(0xE0002000, 0x0001 Items, ...) -- CPU_ReadMem(4 bytes @ 0xE0002000) -- Data:  60 02 00 00  returns 0x01 (0001ms, 0808ms total)
T1468 000:852 JLINK_ReadMemU32(0xE0001000, 0x0001 Items, ...) -- CPU_ReadMem(4 bytes @ 0xE0001000) -- Data:  01 00 00 40  returns 0x01 (0001ms, 0809ms total)
T1468 000:859 JLINK_ExecCommand("Device = STM32F107VC", ...)
                JLINK_ExecCommand("map ram 0x20000000 - 0x20004FFF", ...)  returns 0x00 (0000ms, 0000ms total)
                JLINK_AddMirrorAreaEx(Addr = 0x00000000, Size = 0x00000000) (0000ms, 0000ms total)
                returns 0x00 (0001ms, 0810ms total)
T1468 000:860 JLINK_GetHWStatus(...)  returns 0x00 (0001ms, 0811ms total)
T1468 000:867 JLINK_GetNumBPUnits(Type = 0xFFFFFF00) >0x2F8 JTAG>TotalIRLen = 9, IRPrint = 0x0011 >0x30 JTAG> >0x210 JTAG> >0x118 JTAG> >0xD8 JTAG> >0x198 JTAG> >0x38 JTAG> >0x118 JTAG> >0xD8 JTAG> >0x2F0 JTAG> >0x2F0 JTAG> >0x198 JTAG> >0x198 JTAG>Found Cortex-M3 r2p1, Little endian. >0xD8 JTAG> >0x240 JTAG> >0x198 JTAG> >0x198 JTAG>TPIU fitted. >0x198 JTAG>ETM fitted. >0x198 JTAG>  FPUnit: 6 code (BP) slots and 2 literal slots >0x198 JTAG>  returns 0x06 (0055ms, 0812ms total)
T1468 000:922 JLINK_GetNumBPUnits(Type = 0xF0)  returns 0x800 (0000ms, 0867ms total)
T1468 000:922 JLINK_GetNumWPUnits()  returns 0x04 (0000ms, 0867ms total)
T1468 000:928 JLINK_GetSpeed()  returns 0x7D0 (0000ms, 0867ms total)
T1468 000:942 JLINK_ReadMemU32(0xE000E004, 0x0001 Items, ...) -- CPU_ReadMem(4 bytes @ 0xE000E004) -- Data:  02 00 00 00  returns 0x01 (0002ms, 0867ms total)
T1468 000:944 JLINK_WriteMem(0xE0001000, 0x001C Bytes, ...) -- Data:  01 00 00 00 00 00 00 00 00 00 00 00 00 00 00 00 ... -- CPU_WriteMem(28 bytes @ 0xE0001000)  returns 0x1C (0001ms, 0869ms total)
T1468 000:946 JLINK_ReadMem (0xE0001000, 0x001C Bytes, ...) -- CPU_ReadMem(28 bytes @ 0xE0001000) -- Data:  01 00 00 40 00 00 00 00 00 00 00 00 00 00 00 00 ...  returns 0x00 (0009ms, 0870ms total)
T1468 000:955 JLINK_Halt()  returns 0x00 (0000ms, 0879ms total)
T1468 000:955 JLINK_IsHalted()  returns TRUE (0000ms, 0879ms total)
T1468 000:999 JLINK_WriteMem(0x20000000, 0x0274 Bytes, ...) -- Data:  00 BE 0A E0 0D 78 2D 06 68 40 08 24 40 00 00 D3 ... -- CPU_WriteMem(628 bytes @ 0x20000000)  returns 0x274 (0005ms, 0879ms total)
T1468 001:004 JLINK_WriteReg(R0, 0x08000000)  returns 0x00 (0001ms, 0884ms total)
T1468 001:005 JLINK_WriteReg(R1, 0x017D7840)  returns 0x00 (0000ms, 0885ms total)
T1468 001:005 JLINK_WriteReg(R2, 0x00000001)  returns 0x00 (0000ms, 0885ms total)
T1468 001:005 JLINK_WriteReg(R3, 0x00000000)  returns 0x00 (0001ms, 0885ms total)
T1468 001:006 JLINK_WriteReg(R4, 0x00000000)  returns 0x00 (0000ms, 0886ms total)
T1468 001:006 JLINK_WriteReg(R5, 0x00000000)  returns 0x00 (0000ms, 0886ms total)
T1468 001:006 JLINK_WriteReg(R6, 0x00000000)  returns 0x00 (0000ms, 0886ms total)
T1468 001:006 JLINK_WriteReg(R7, 0x00000000)  returns 0x00 (0000ms, 0886ms total)
T1468 001:006 JLINK_WriteReg(R8, 0x00000000)  returns 0x00 (0000ms, 0886ms total)
T1468 001:006 JLINK_WriteReg(R9, 0x2000026C)  returns 0x00 (0001ms, 0886ms total)
T1468 001:007 JLINK_WriteReg(R10, 0x00000000)  returns 0x00 (0000ms, 0887ms total)
T1468 001:007 JLINK_WriteReg(R11, 0x00000000)  returns 0x00 (0000ms, 0887ms total)
T1468 001:007 JLINK_WriteReg(R12, 0x00000000)  returns 0x00 (0000ms, 0887ms total)
T1468 001:007 JLINK_WriteReg(R13, 0x20000800)  returns 0x00 (0000ms, 0887ms total)
T1468 001:007 JLINK_WriteReg(R14, 0x20000001)  returns 0x00 (0000ms, 0887ms total)
T1468 001:007 JLINK_WriteReg(R15, 0x20000038)  returns 0x00 (0000ms, 0887ms total)
T1468 001:007 JLINK_WriteReg(XPSR, 0x01000000)  returns 0x00 (0000ms, 0887ms total)
T1468 001:007 JLINK_WriteReg(MSP, 0x20000800)  returns 0x00 (0000ms, 0887ms total)
T1468 001:007 JLINK_WriteReg(PSP, 0x20000800)  returns 0x00 (0000ms, 0887ms total)
T1468 001:007 JLINK_WriteReg(CFBP, 0x00000000)  returns 0x00 (0000ms, 0887ms total)
T1468 001:007 JLINK_SetBPEx(Addr = 0x20000000, Type = 0xFFFFFFF2) -- CPU_ReadMem(2 bytes @ 0x20000000)  returns 0x00000001 (0001ms, 0887ms total)
T1468 001:008 JLINK_Go() -- CPU_WriteMem(2 bytes @ 0x20000000) -- CPU_WriteMem(4 bytes @ 0xE0002008) -- CPU_WriteMem(4 bytes @ 0xE000200C) -- CPU_WriteMem(4 bytes @ 0xE0002010) -- CPU_WriteMem(4 bytes @ 0xE0002014) -- CPU_WriteMem(4 bytes @ 0xE0002018) -- CPU_WriteMem(4 bytes @ 0xE000201C) (0011ms, 0888ms total)
T1468 001:019 JLINK_IsHalted() -- CPU_ReadMem(2 bytes @ 0x20000000)  returns TRUE (0006ms, 0899ms total)
T1468 001:025 JLINK_ReadReg(R15)  returns 0x20000000 (0000ms, 0899ms total)
T1468 001:025 JLINK_ClrBPEx(BPHandle = 0x00000001)  returns 0x00 (0000ms, 0899ms total)
T1468 001:025 JLINK_ReadReg(R0)  returns 0x00000000 (0000ms, 0899ms total)
T1468 001:025 JLINK_WriteReg(R0, 0x08000000)  returns 0x00 (0000ms, 0899ms total)
T1468 001:025 JLINK_WriteReg(R1, 0x00000800)  returns 0x00 (0000ms, 0899ms total)
T1468 001:025 JLINK_WriteReg(R2, 0x000000FF)  returns 0x00 (0000ms, 0899ms total)
T1468 001:025 JLINK_WriteReg(R3, 0x00000000)  returns 0x00 (0000ms, 0899ms total)
T1468 001:025 JLINK_WriteReg(R4, 0x00000000)  returns 0x00 (0001ms, 0899ms total)
T1468 001:026 JLINK_WriteReg(R5, 0x00000000)  returns 0x00 (0000ms, 0900ms total)
T1468 001:026 JLINK_WriteReg(R6, 0x00000000)  returns 0x00 (0000ms, 0900ms total)
T1468 001:026 JLINK_WriteReg(R7, 0x00000000)  returns 0x00 (0000ms, 0900ms total)
T1468 001:026 JLINK_WriteReg(R8, 0x00000000)  returns 0x00 (0000ms, 0900ms total)
T1468 001:026 JLINK_WriteReg(R9, 0x2000026C)  returns 0x00 (0000ms, 0900ms total)
T1468 001:026 JLINK_WriteReg(R10, 0x00000000)  returns 0x00 (0000ms, 0900ms total)
T1468 001:026 JLINK_WriteReg(R11, 0x00000000)  returns 0x00 (0000ms, 0900ms total)
T1468 001:026 JLINK_WriteReg(R12, 0x00000000)  returns 0x00 (0000ms, 0900ms total)
T1468 001:026 JLINK_WriteReg(R13, 0x20000800)  returns 0x00 (0000ms, 0900ms total)
T1468 001:026 JLINK_WriteReg(R14, 0x20000001)  returns 0x00 (0000ms, 0900ms total)
T1468 001:026 JLINK_WriteReg(R15, 0x20000020)  returns 0x00 (0000ms, 0900ms total)
T1468 001:026 JLINK_WriteReg(XPSR, 0x01000000)  returns 0x00 (0000ms, 0900ms total)
T1468 001:026 JLINK_WriteReg(MSP, 0x20000800)  returns 0x00 (0000ms, 0900ms total)
T1468 001:026 JLINK_WriteReg(PSP, 0x20000800)  returns 0x00 (0000ms, 0900ms total)
T1468 001:026 JLINK_WriteReg(CFBP, 0x00000000)  returns 0x00 (0000ms, 0900ms total)
T1468 001:026 JLINK_SetBPEx(Addr = 0x20000000, Type = 0xFFFFFFF2)  returns 0x00000002 (0000ms, 0900ms total)
T1468 001:026 JLINK_Go() -- CPU_WriteMem(4 bytes @ 0xE0002008) -- CPU_WriteMem(4 bytes @ 0xE000200C) -- CPU_WriteMem(4 bytes @ 0xE0002010) -- CPU_WriteMem(4 bytes @ 0xE0002014) -- CPU_WriteMem(4 bytes @ 0xE0002018) -- CPU_WriteMem(4 bytes @ 0xE000201C) (0009ms, 0900ms total)
T1468 001:035 JLINK_IsHalted() -- CPU_ReadMem(2 bytes @ 0x20000000)  returns TRUE (0008ms, 0909ms total)
T1468 001:043 JLINK_ReadReg(R15)  returns 0x20000000 (0000ms, 0909ms total)
T1468 001:043 JLINK_ClrBPEx(BPHandle = 0x00000002)  returns 0x00 (0000ms, 0909ms total)
T1468 001:043 JLINK_ReadReg(R0)  returns 0x00000001 (0000ms, 0909ms total)
T1468 001:043 JLINK_WriteReg(R0, 0x08000000)  returns 0x00 (0005ms, 0909ms total)
T1468 001:048 JLINK_WriteReg(R1, 0x00000800)  returns 0x00 (0003ms, 0914ms total)
T1468 001:051 JLINK_WriteReg(R2, 0x000000FF)  returns 0x00 (0002ms, 0917ms total)
T1468 001:053 JLINK_WriteReg(R3, 0x00000000)  returns 0x00 (0002ms, 0919ms total)
T1468 001:055 JLINK_WriteReg(R4, 0x00000000)  returns 0x00 (0000ms, 0921ms total)
T1468 001:055 JLINK_WriteReg(R5, 0x00000000)  returns 0x00 (0000ms, 0921ms total)
T1468 001:055 JLINK_WriteReg(R6, 0x00000000)  returns 0x00 (0000ms, 0921ms total)
T1468 001:055 JLINK_WriteReg(R7, 0x00000000)  returns 0x00 (0000ms, 0921ms total)
T1468 001:055 JLINK_WriteReg(R8, 0x00000000)  returns 0x00 (0000ms, 0921ms total)
T1468 001:055 JLINK_WriteReg(R9, 0x2000026C)  returns 0x00 (0000ms, 0921ms total)
T1468 001:059 JLINK_WriteReg(R10, 0x00000000)  returns 0x00 (0000ms, 0921ms total)
T1468 001:059 JLINK_WriteReg(R11, 0x00000000)  returns 0x00 (0000ms, 0921ms total)
T1468 001:059 JLINK_WriteReg(R12, 0x00000000)  returns 0x00 (0000ms, 0921ms total)
T1468 001:059 JLINK_WriteReg(R13, 0x20000800)  returns 0x00 (0000ms, 0921ms total)
T1468 001:059 JLINK_WriteReg(R14, 0x20000001)  returns 0x00 (0000ms, 0921ms total)
T1468 001:059 JLINK_WriteReg(R15, 0x20000106)  returns 0x00 (0000ms, 0921ms total)
T1468 001:059 JLINK_WriteReg(XPSR, 0x01000000)  returns 0x00 (0000ms, 0921ms total)
T1468 001:059 JLINK_WriteReg(MSP, 0x20000800)  returns 0x00 (0000ms, 0921ms total)
T1468 001:064 JLINK_WriteReg(PSP, 0x20000800)  returns 0x00 (0000ms, 0921ms total)
T1468 001:064 JLINK_WriteReg(CFBP, 0x00000000)  returns 0x00 (0000ms, 0921ms total)
T1468 001:064 JLINK_SetBPEx(Addr = 0x20000000, Type = 0xFFFFFFF2)  returns 0x00000003 (0000ms, 0921ms total)
T1468 001:064 JLINK_Go() -- CPU_WriteMem(4 bytes @ 0xE0002008) -- CPU_WriteMem(4 bytes @ 0xE000200C) -- CPU_WriteMem(4 bytes @ 0xE0002010) -- CPU_WriteMem(4 bytes @ 0xE0002014) -- CPU_WriteMem(4 bytes @ 0xE0002018) -- CPU_WriteMem(4 bytes @ 0xE000201C) (0009ms, 0921ms total)
T1468 001:073 JLINK_IsHalted()  returns FALSE (0001ms, 0930ms total)
T1468 001:125 JLINK_IsHalted() -- CPU_ReadMem(2 bytes @ 0x20000000)  returns TRUE (0006ms, 0930ms total)
T1468 001:131 JLINK_ReadReg(R15)  returns 0x20000000 (0000ms, 0930ms total)
T1468 001:131 JLINK_ClrBPEx(BPHandle = 0x00000003)  returns 0x00 (0001ms, 0930ms total)
T1468 001:132 JLINK_ReadReg(R0)  returns 0x00000000 (0000ms, 0931ms total)
T1468 001:133 JLINK_WriteReg(R0, 0x08000800)  returns 0x00 (0000ms, 0931ms total)
T1468 001:133 JLINK_WriteReg(R1, 0x00000800)  returns 0x00 (0000ms, 0931ms total)
T1468 001:133 JLINK_WriteReg(R2, 0x000000FF)  returns 0x00 (0000ms, 0931ms total)
T1468 001:133 JLINK_WriteReg(R3, 0x00000000)  returns 0x00 (0000ms, 0931ms total)
T1468 001:133 JLINK_WriteReg(R4, 0x00000000)  returns 0x00 (0000ms, 0931ms total)
T1468 001:133 JLINK_WriteReg(R5, 0x00000000)  returns 0x00 (0000ms, 0931ms total)
T1468 001:133 JLINK_WriteReg(R6, 0x00000000)  returns 0x00 (0000ms, 0931ms total)
T1468 001:133 JLINK_WriteReg(R7, 0x00000000)  returns 0x00 (0000ms, 0931ms total)
T1468 001:133 JLINK_WriteReg(R8, 0x00000000)  returns 0x00 (0000ms, 0931ms total)
T1468 001:133 JLINK_WriteReg(R9, 0x2000026C)  returns 0x00 (0000ms, 0931ms total)
T1468 001:133 JLINK_WriteReg(R10, 0x00000000)  returns 0x00 (0000ms, 0931ms total)
T1468 001:133 JLINK_WriteReg(R11, 0x00000000)  returns 0x00 (0000ms, 0931ms total)
T1468 001:133 JLINK_WriteReg(R12, 0x00000000)  returns 0x00 (0000ms, 0931ms total)
T1468 001:133 JLINK_WriteReg(R13, 0x20000800)  returns 0x00 (0000ms, 0931ms total)
T1468 001:133 JLINK_WriteReg(R14, 0x20000001)  returns 0x00 (0000ms, 0931ms total)
T1468 001:133 JLINK_WriteReg(R15, 0x20000020)  returns 0x00 (0000ms, 0931ms total)
T1468 001:133 JLINK_WriteReg(XPSR, 0x01000000)  returns 0x00 (0000ms, 0931ms total)
T1468 001:133 JLINK_WriteReg(MSP, 0x20000800)  returns 0x00 (0000ms, 0931ms total)
T1468 001:133 JLINK_WriteReg(PSP, 0x20000800)  returns 0x00 (0000ms, 0931ms total)
T1468 001:133 JLINK_WriteReg(CFBP, 0x00000000)  returns 0x00 (0000ms, 0931ms total)
T1468 001:133 JLINK_SetBPEx(Addr = 0x20000000, Type = 0xFFFFFFF2)  returns 0x00000004 (0000ms, 0931ms total)
T1468 001:133 JLINK_Go() -- CPU_WriteMem(4 bytes @ 0xE0002008) -- CPU_WriteMem(4 bytes @ 0xE000200C) -- CPU_WriteMem(4 bytes @ 0xE0002010) -- CPU_WriteMem(4 bytes @ 0xE0002014) -- CPU_WriteMem(4 bytes @ 0xE0002018) -- CPU_WriteMem(4 bytes @ 0xE000201C) (0009ms, 0931ms total)
T1468 001:142 JLINK_IsHalted() -- CPU_ReadMem(2 bytes @ 0x20000000)  returns TRUE (0007ms, 0940ms total)
T1468 001:149 JLINK_ReadReg(R15)  returns 0x20000000 (0000ms, 0940ms total)
T1468 001:160 JLINK_ClrBPEx(BPHandle = 0x00000004)  returns 0x00 (0006ms, 0940ms total)
T1468 001:166 JLINK_ReadReg(R0)  returns 0x00000001 (0000ms, 0946ms total)
T1468 001:166 JLINK_WriteReg(R0, 0x08000800)  returns 0x00 (0000ms, 0946ms total)
T1468 001:166 JLINK_WriteReg(R1, 0x00000800)  returns 0x00 (0000ms, 0946ms total)
T1468 001:166 JLINK_WriteReg(R2, 0x000000FF)  returns 0x00 (0000ms, 0946ms total)
T1468 001:166 JLINK_WriteReg(R3, 0x00000000)  returns 0x00 (0000ms, 0946ms total)
T1468 001:166 JLINK_WriteReg(R4, 0x00000000)  returns 0x00 (0000ms, 0946ms total)
T1468 001:167 JLINK_WriteReg(R5, 0x00000000)  returns 0x00 (0000ms, 0947ms total)
T1468 001:167 JLINK_WriteReg(R6, 0x00000000)  returns 0x00 (0000ms, 0947ms total)
T1468 001:168 JLINK_WriteReg(R7, 0x00000000)  returns 0x00 (0000ms, 0947ms total)
T1468 001:168 JLINK_WriteReg(R8, 0x00000000)  returns 0x00 (0000ms, 0947ms total)
T1468 001:168 JLINK_WriteReg(R9, 0x2000026C)  returns 0x00 (0000ms, 0947ms total)
T1468 001:168 JLINK_WriteReg(R10, 0x00000000)  returns 0x00 (0000ms, 0947ms total)
T1468 001:168 JLINK_WriteReg(R11, 0x00000000)  returns 0x00 (0000ms, 0947ms total)
T1468 001:168 JLINK_WriteReg(R12, 0x00000000)  returns 0x00 (0000ms, 0947ms total)
T1468 001:168 JLINK_WriteReg(R13, 0x20000800)  returns 0x00 (0000ms, 0947ms total)
T1468 001:168 JLINK_WriteReg(R14, 0x20000001)  returns 0x00 (0000ms, 0947ms total)
T1468 001:168 JLINK_WriteReg(R15, 0x20000106)  returns 0x00 (0000ms, 0947ms total)
T1468 001:169 JLINK_WriteReg(XPSR, 0x01000000)  returns 0x00 (0000ms, 0947ms total)
T1468 001:169 JLINK_WriteReg(MSP, 0x20000800)  returns 0x00 (0000ms, 0947ms total)
T1468 001:169 JLINK_WriteReg(PSP, 0x20000800)  returns 0x00 (0000ms, 0947ms total)
T1468 001:169 JLINK_WriteReg(CFBP, 0x00000000)  returns 0x00 (0000ms, 0947ms total)
T1468 001:169 JLINK_SetBPEx(Addr = 0x20000000, Type = 0xFFFFFFF2)  returns 0x00000005 (0000ms, 0947ms total)
T1468 001:169 JLINK_Go() -- CPU_WriteMem(4 bytes @ 0xE0002008) -- CPU_WriteMem(4 bytes @ 0xE000200C) -- CPU_WriteMem(4 bytes @ 0xE0002010) -- CPU_WriteMem(4 bytes @ 0xE0002014) -- CPU_WriteMem(4 bytes @ 0xE0002018) -- CPU_WriteMem(4 bytes @ 0xE000201C) (0008ms, 0947ms total)
T1468 001:177 JLINK_IsHalted()  returns FALSE (0001ms, 0955ms total)
T1468 001:230 JLINK_IsHalted() -- CPU_ReadMem(2 bytes @ 0x20000000)  returns TRUE (0006ms, 0955ms total)
T1468 001:236 JLINK_ReadReg(R15)  returns 0x20000000 (0000ms, 0955ms total)
T1468 001:236 JLINK_ClrBPEx(BPHandle = 0x00000005)  returns 0x00 (0000ms, 0955ms total)
T1468 001:236 JLINK_ReadReg(R0)  returns 0x00000000 (0000ms, 0955ms total)
T1468 001:237 JLINK_WriteReg(R0, 0x08001000)  returns 0x00 (0000ms, 0955ms total)
T1468 001:237 JLINK_WriteReg(R1, 0x00000800)  returns 0x00 (0000ms, 0955ms total)
T1468 001:237 JLINK_WriteReg(R2, 0x000000FF)  returns 0x00 (0000ms, 0955ms total)
T1468 001:237 JLINK_WriteReg(R3, 0x00000000)  returns 0x00 (0000ms, 0955ms total)
T1468 001:237 JLINK_WriteReg(R4, 0x00000000)  returns 0x00 (0000ms, 0955ms total)
T1468 001:237 JLINK_WriteReg(R5, 0x00000000)  returns 0x00 (0000ms, 0955ms total)
T1468 001:237 JLINK_WriteReg(R6, 0x00000000)  returns 0x00 (0000ms, 0955ms total)
T1468 001:237 JLINK_WriteReg(R7, 0x00000000)  returns 0x00 (0000ms, 0955ms total)
T1468 001:237 JLINK_WriteReg(R8, 0x00000000)  returns 0x00 (0000ms, 0955ms total)
T1468 001:237 JLINK_WriteReg(R9, 0x2000026C)  returns 0x00 (0000ms, 0955ms total)
T1468 001:237 JLINK_WriteReg(R10, 0x00000000)  returns 0x00 (0000ms, 0955ms total)
T1468 001:237 JLINK_WriteReg(R11, 0x00000000)  returns 0x00 (0000ms, 0955ms total)
T1468 001:237 JLINK_WriteReg(R12, 0x00000000)  returns 0x00 (0000ms, 0955ms total)
T1468 001:237 JLINK_WriteReg(R13, 0x20000800)  returns 0x00 (0000ms, 0955ms total)
T1468 001:237 JLINK_WriteReg(R14, 0x20000001)  returns 0x00 (0000ms, 0955ms total)
T1468 001:237 JLINK_WriteReg(R15, 0x20000020)  returns 0x00 (0000ms, 0955ms total)
T1468 001:237 JLINK_WriteReg(XPSR, 0x01000000)  returns 0x00 (0000ms, 0955ms total)
T1468 001:237 JLINK_WriteReg(MSP, 0x20000800)  returns 0x00 (0000ms, 0955ms total)
T1468 001:237 JLINK_WriteReg(PSP, 0x20000800)  returns 0x00 (0000ms, 0955ms total)
T1468 001:237 JLINK_WriteReg(CFBP, 0x00000000)  returns 0x00 (0000ms, 0955ms total)
T1468 001:237 JLINK_SetBPEx(Addr = 0x20000000, Type = 0xFFFFFFF2)  returns 0x00000006 (0000ms, 0955ms total)
T1468 001:237 JLINK_Go() -- CPU_WriteMem(4 bytes @ 0xE0002008) -- CPU_WriteMem(4 bytes @ 0xE000200C) -- CPU_WriteMem(4 bytes @ 0xE0002010) -- CPU_WriteMem(4 bytes @ 0xE0002014) -- CPU_WriteMem(4 bytes @ 0xE0002018) -- CPU_WriteMem(4 bytes @ 0xE000201C) (0009ms, 0955ms total)
T1468 001:246 JLINK_IsHalted() -- CPU_ReadMem(2 bytes @ 0x20000000)  returns TRUE (0007ms, 0964ms total)
T1468 001:253 JLINK_ReadReg(R15)  returns 0x20000000 (0000ms, 0964ms total)
T1468 001:253 JLINK_ClrBPEx(BPHandle = 0x00000006)  returns 0x00 (0000ms, 0964ms total)
T1468 001:253 JLINK_ReadReg(R0)  returns 0x00000001 (0000ms, 0964ms total)
T1468 001:253 JLINK_WriteReg(R0, 0x08001000)  returns 0x00 (0001ms, 0964ms total)
T1468 001:254 JLINK_WriteReg(R1, 0x00000800)  returns 0x00 (0000ms, 0965ms total)
T1468 001:254 JLINK_WriteReg(R2, 0x000000FF)  returns 0x00 (0000ms, 0965ms total)
T1468 001:254 JLINK_WriteReg(R3, 0x00000000)  returns 0x00 (0000ms, 0965ms total)
T1468 001:254 JLINK_WriteReg(R4, 0x00000000)  returns 0x00 (0000ms, 0965ms total)
T1468 001:254 JLINK_WriteReg(R5, 0x00000000)  returns 0x00 (0000ms, 0965ms total)
T1468 001:254 JLINK_WriteReg(R6, 0x00000000)  returns 0x00 (0000ms, 0965ms total)
T1468 001:254 JLINK_WriteReg(R7, 0x00000000)  returns 0x00 (0000ms, 0965ms total)
T1468 001:254 JLINK_WriteReg(R8, 0x00000000)  returns 0x00 (0000ms, 0965ms total)
T1468 001:254 JLINK_WriteReg(R9, 0x2000026C)  returns 0x00 (0000ms, 0965ms total)
T1468 001:254 JLINK_WriteReg(R10, 0x00000000)  returns 0x00 (0000ms, 0965ms total)
T1468 001:254 JLINK_WriteReg(R11, 0x00000000)  returns 0x00 (0000ms, 0965ms total)
T1468 001:254 JLINK_WriteReg(R12, 0x00000000)  returns 0x00 (0000ms, 0965ms total)
T1468 001:254 JLINK_WriteReg(R13, 0x20000800)  returns 0x00 (0000ms, 0965ms total)
T1468 001:254 JLINK_WriteReg(R14, 0x20000001)  returns 0x00 (0000ms, 0965ms total)
T1468 001:254 JLINK_WriteReg(R15, 0x20000106)  returns 0x00 (0000ms, 0965ms total)
T1468 001:254 JLINK_WriteReg(XPSR, 0x01000000)  returns 0x00 (0000ms, 0965ms total)
T1468 001:254 JLINK_WriteReg(MSP, 0x20000800)  returns 0x00 (0000ms, 0965ms total)
T1468 001:254 JLINK_WriteReg(PSP, 0x20000800)  returns 0x00 (0000ms, 0965ms total)
T1468 001:254 JLINK_WriteReg(CFBP, 0x00000000)  returns 0x00 (0000ms, 0965ms total)
T1468 001:254 JLINK_SetBPEx(Addr = 0x20000000, Type = 0xFFFFFFF2)  returns 0x00000007 (0000ms, 0965ms total)
T1468 001:254 JLINK_Go() -- CPU_WriteMem(4 bytes @ 0xE0002008) -- CPU_WriteMem(4 bytes @ 0xE000200C) -- CPU_WriteMem(4 bytes @ 0xE0002010) -- CPU_WriteMem(4 bytes @ 0xE0002014) -- CPU_WriteMem(4 bytes @ 0xE0002018) -- CPU_WriteMem(4 bytes @ 0xE000201C) (0028ms, 0965ms total)
T1468 001:282 JLINK_IsHalted()  returns FALSE (0001ms, 0993ms total)
T1468 001:334 JLINK_IsHalted() -- CPU_ReadMem(2 bytes @ 0x20000000)  returns TRUE (0006ms, 0993ms total)
T1468 001:340 JLINK_ReadReg(R15)  returns 0x20000000 (0000ms, 0993ms total)
T1468 001:340 JLINK_ClrBPEx(BPHandle = 0x00000007)  returns 0x00 (0001ms, 0993ms total)
T1468 001:341 JLINK_ReadReg(R0)  returns 0x00000000 (0000ms, 0994ms total)
T1468 001:341 JLINK_WriteReg(R0, 0x00000001)  returns 0x00 (0000ms, 0994ms total)
T1468 001:341 JLINK_WriteReg(R1, 0x00000800)  returns 0x00 (0000ms, 0994ms total)
T1468 001:341 JLINK_WriteReg(R2, 0x000000FF)  returns 0x00 (0000ms, 0994ms total)
T1468 001:341 JLINK_WriteReg(R3, 0x00000000)  returns 0x00 (0000ms, 0994ms total)
T1468 001:341 JLINK_WriteReg(R4, 0x00000000)  returns 0x00 (0000ms, 0994ms total)
T1468 001:341 JLINK_WriteReg(R5, 0x00000000)  returns 0x00 (0000ms, 0994ms total)
T1468 001:341 JLINK_WriteReg(R6, 0x00000000)  returns 0x00 (0000ms, 0994ms total)
T1468 001:341 JLINK_WriteReg(R7, 0x00000000)  returns 0x00 (0000ms, 0994ms total)
T1468 001:341 JLINK_WriteReg(R8, 0x00000000)  returns 0x00 (0000ms, 0994ms total)
T1468 001:341 JLINK_WriteReg(R9, 0x2000026C)  returns 0x00 (0000ms, 0994ms total)
T1468 001:341 JLINK_WriteReg(R10, 0x00000000)  returns 0x00 (0000ms, 0994ms total)
T1468 001:341 JLINK_WriteReg(R11, 0x00000000)  returns 0x00 (0000ms, 0994ms total)
T1468 001:341 JLINK_WriteReg(R12, 0x00000000)  returns 0x00 (0000ms, 0994ms total)
T1468 001:341 JLINK_WriteReg(R13, 0x20000800)  returns 0x00 (0000ms, 0994ms total)
T1468 001:341 JLINK_WriteReg(R14, 0x20000001)  returns 0x00 (0000ms, 0994ms total)
T1468 001:341 JLINK_WriteReg(R15, 0x2000007C)  returns 0x00 (0000ms, 0994ms total)
T1468 001:341 JLINK_WriteReg(XPSR, 0x01000000)  returns 0x00 (0001ms, 0994ms total)
T1468 001:342 JLINK_WriteReg(MSP, 0x20000800)  returns 0x00 (0000ms, 0995ms total)
T1468 001:342 JLINK_WriteReg(PSP, 0x20000800)  returns 0x00 (0000ms, 0995ms total)
T1468 001:342 JLINK_WriteReg(CFBP, 0x00000000)  returns 0x00 (0000ms, 0995ms total)
T1468 001:342 JLINK_SetBPEx(Addr = 0x20000000, Type = 0xFFFFFFF2)  returns 0x00000008 (0000ms, 0995ms total)
T1468 001:342 JLINK_Go() -- CPU_WriteMem(4 bytes @ 0xE0002008) -- CPU_WriteMem(4 bytes @ 0xE000200C) -- CPU_WriteMem(4 bytes @ 0xE0002010) -- CPU_WriteMem(4 bytes @ 0xE0002014) -- CPU_WriteMem(4 bytes @ 0xE0002018) -- CPU_WriteMem(4 bytes @ 0xE000201C) (0008ms, 0995ms total)
T1468 001:350 JLINK_IsHalted() -- CPU_ReadMem(2 bytes @ 0x20000000)  returns TRUE (0007ms, 1003ms total)
T1468 001:357 JLINK_ReadReg(R15)  returns 0x20000000 (0000ms, 1003ms total)
T1468 001:357 JLINK_ClrBPEx(BPHandle = 0x00000008)  returns 0x00 (0000ms, 1003ms total)
T1468 001:357 JLINK_ReadReg(R0)  returns 0x00000000 (0000ms, 1003ms total)
T1468 001:433 JLINK_WriteMem(0x20000000, 0x0274 Bytes, ...) -- Data:  00 BE 0A E0 0D 78 2D 06 68 40 08 24 40 00 00 D3 ... -- CPU_WriteMem(628 bytes @ 0x20000000)  returns 0x274 (0005ms, 1003ms total)
T1468 001:438 JLINK_WriteReg(R0, 0x08000000)  returns 0x00 (0000ms, 1008ms total)
T1468 001:438 JLINK_WriteReg(R1, 0x017D7840)  returns 0x00 (0000ms, 1008ms total)
T1468 001:438 JLINK_WriteReg(R2, 0x00000002)  returns 0x00 (0000ms, 1008ms total)
T1468 001:438 JLINK_WriteReg(R3, 0x00000000)  returns 0x00 (0000ms, 1008ms total)
T1468 001:438 JLINK_WriteReg(R4, 0x00000000)  returns 0x00 (0000ms, 1008ms total)
T1468 001:438 JLINK_WriteReg(R5, 0x00000000)  returns 0x00 (0000ms, 1008ms total)
T1468 001:438 JLINK_WriteReg(R6, 0x00000000)  returns 0x00 (0000ms, 1008ms total)
T1468 001:438 JLINK_WriteReg(R7, 0x00000000)  returns 0x00 (0000ms, 1008ms total)
T1468 001:438 JLINK_WriteReg(R8, 0x00000000)  returns 0x00 (0000ms, 1008ms total)
T1468 001:438 JLINK_WriteReg(R9, 0x2000026C)  returns 0x00 (0000ms, 1008ms total)
T1468 001:438 JLINK_WriteReg(R10, 0x00000000)  returns 0x00 (0000ms, 1008ms total)
T1468 001:438 JLINK_WriteReg(R11, 0x00000000)  returns 0x00 (0000ms, 1008ms total)
T1468 001:438 JLINK_WriteReg(R12, 0x00000000)  returns 0x00 (0000ms, 1008ms total)
T1468 001:438 JLINK_WriteReg(R13, 0x20000800)  returns 0x00 (0000ms, 1008ms total)
T1468 001:438 JLINK_WriteReg(R14, 0x20000001)  returns 0x00 (0000ms, 1008ms total)
T1468 001:438 JLINK_WriteReg(R15, 0x20000038)  returns 0x00 (0000ms, 1008ms total)
T1468 001:438 JLINK_WriteReg(XPSR, 0x01000000)  returns 0x00 (0000ms, 1008ms total)
T1468 001:438 JLINK_WriteReg(MSP, 0x20000800)  returns 0x00 (0000ms, 1008ms total)
T1468 001:438 JLINK_WriteReg(PSP, 0x20000800)  returns 0x00 (0000ms, 1008ms total)
T1468 001:438 JLINK_WriteReg(CFBP, 0x00000000)  returns 0x00 (0000ms, 1008ms total)
T1468 001:438 JLINK_SetBPEx(Addr = 0x20000000, Type = 0xFFFFFFF2) -- CPU_ReadMem(2 bytes @ 0x20000000)  returns 0x00000009 (0002ms, 1008ms total)
T1468 001:440 JLINK_Go() -- CPU_WriteMem(2 bytes @ 0x20000000) -- CPU_WriteMem(4 bytes @ 0xE0002008) -- CPU_WriteMem(4 bytes @ 0xE000200C) -- CPU_WriteMem(4 bytes @ 0xE0002010) -- CPU_WriteMem(4 bytes @ 0xE0002014) -- CPU_WriteMem(4 bytes @ 0xE0002018) -- CPU_WriteMem(4 bytes @ 0xE000201C) (0009ms, 1010ms total)
T1468 001:449 JLINK_IsHalted() -- CPU_ReadMem(2 bytes @ 0x20000000)  returns TRUE (0007ms, 1019ms total)
T1468 001:456 JLINK_ReadReg(R15)  returns 0x20000000 (0000ms, 1019ms total)
T1468 001:456 JLINK_ClrBPEx(BPHandle = 0x00000009)  returns 0x00 (0000ms, 1019ms total)
T1468 001:456 JLINK_ReadReg(R0)  returns 0x00000000 (0000ms, 1019ms total)
T1468 001:457 JLINK_WriteMem(0x20000274, 0x0400 Bytes, ...) -- Data:  48 06 00 20 65 01 00 08 09 04 00 08 B1 03 00 08 ... -- CPU_WriteMem(1024 bytes @ 0x20000274)  returns 0x400 (0007ms, 1019ms total)
T1468 001:464 JLINK_WriteReg(R0, 0x08000000)  returns 0x00 (0000ms, 1026ms total)
T1468 001:464 JLINK_WriteReg(R1, 0x00000400)  returns 0x00 (0001ms, 1026ms total)
T1468 001:465 JLINK_WriteReg(R2, 0x20000274)  returns 0x00 (0000ms, 1027ms total)
T1468 001:465 JLINK_WriteReg(R3, 0x00000000)  returns 0x00 (0000ms, 1027ms total)
T1468 001:465 JLINK_WriteReg(R4, 0x00000000)  returns 0x00 (0000ms, 1027ms total)
T1468 001:465 JLINK_WriteReg(R5, 0x00000000)  returns 0x00 (0000ms, 1027ms total)
T1468 001:465 JLINK_WriteReg(R6, 0x00000000)  returns 0x00 (0000ms, 1027ms total)
T1468 001:465 JLINK_WriteReg(R7, 0x00000000)  returns 0x00 (0000ms, 1027ms total)
T1468 001:465 JLINK_WriteReg(R8, 0x00000000)  returns 0x00 (0000ms, 1027ms total)
T1468 001:465 JLINK_WriteReg(R9, 0x2000026C)  returns 0x00 (0000ms, 1027ms total)
T1468 001:465 JLINK_WriteReg(R10, 0x00000000)  returns 0x00 (0000ms, 1027ms total)
T1468 001:465 JLINK_WriteReg(R11, 0x00000000)  returns 0x00 (0000ms, 1027ms total)
T1468 001:465 JLINK_WriteReg(R12, 0x00000000)  returns 0x00 (0000ms, 1027ms total)
T1468 001:465 JLINK_WriteReg(R13, 0x20000800)  returns 0x00 (0000ms, 1027ms total)
T1468 001:465 JLINK_WriteReg(R14, 0x20000001)  returns 0x00 (0000ms, 1027ms total)
T1468 001:465 JLINK_WriteReg(R15, 0x200001A0)  returns 0x00 (0000ms, 1027ms total)
T1468 001:465 JLINK_WriteReg(XPSR, 0x01000000)  returns 0x00 (0000ms, 1027ms total)
T1468 001:465 JLINK_WriteReg(MSP, 0x20000800)  returns 0x00 (0000ms, 1027ms total)
T1468 001:465 JLINK_WriteReg(PSP, 0x20000800)  returns 0x00 (0000ms, 1027ms total)
T1468 001:465 JLINK_WriteReg(CFBP, 0x00000000)  returns 0x00 (0000ms, 1027ms total)
T1468 001:465 JLINK_SetBPEx(Addr = 0x20000000, Type = 0xFFFFFFF2)  returns 0x0000000A (0000ms, 1027ms total)
T1468 001:465 JLINK_Go() -- CPU_WriteMem(4 bytes @ 0xE0002008) -- CPU_WriteMem(4 bytes @ 0xE000200C) -- CPU_WriteMem(4 bytes @ 0xE0002010) -- CPU_WriteMem(4 bytes @ 0xE0002014) -- CPU_WriteMem(4 bytes @ 0xE0002018) -- CPU_WriteMem(4 bytes @ 0xE000201C) (0010ms, 1027ms total)
T1468 001:475 JLINK_IsHalted()  returns FALSE (0001ms, 1037ms total)
T1468 001:526 JLINK_IsHalted() -- CPU_ReadMem(2 bytes @ 0x20000000)  returns TRUE (0007ms, 1037ms total)
T1468 001:533 JLINK_ReadReg(R15)  returns 0x20000000 (0000ms, 1037ms total)
T1468 001:533 JLINK_ClrBPEx(BPHandle = 0x0000000A)  returns 0x00 (0000ms, 1037ms total)
T1468 001:533 JLINK_ReadReg(R0)  returns 0x00000000 (0000ms, 1037ms total)
T1468 001:534 JLINK_WriteMem(0x20000274, 0x0400 Bytes, ...) -- Data:  00 18 01 40 00 BF FE E7 70 47 10 B5 00 21 4F F0 ... -- CPU_WriteMem(1024 bytes @ 0x20000274)  returns 0x400 (0007ms, 1037ms total)
T1468 001:541 JLINK_WriteReg(R0, 0x08000400)  returns 0x00 (0000ms, 1044ms total)
T1468 001:541 JLINK_WriteReg(R1, 0x00000400)  returns 0x00 (0000ms, 1044ms total)
T1468 001:541 JLINK_WriteReg(R2, 0x20000274)  returns 0x00 (0000ms, 1044ms total)
T1468 001:541 JLINK_WriteReg(R3, 0x00000000)  returns 0x00 (0000ms, 1044ms total)
T1468 001:541 JLINK_WriteReg(R4, 0x00000000)  returns 0x00 (0000ms, 1044ms total)
T1468 001:541 JLINK_WriteReg(R5, 0x00000000)  returns 0x00 (0000ms, 1044ms total)
T1468 001:541 JLINK_WriteReg(R6, 0x00000000)  returns 0x00 (0001ms, 1044ms total)
T1468 001:542 JLINK_WriteReg(R7, 0x00000000)  returns 0x00 (0000ms, 1045ms total)
T1468 001:542 JLINK_WriteReg(R8, 0x00000000)  returns 0x00 (0000ms, 1045ms total)
T1468 001:542 JLINK_WriteReg(R9, 0x2000026C)  returns 0x00 (0000ms, 1045ms total)
T1468 001:542 JLINK_WriteReg(R10, 0x00000000)  returns 0x00 (0000ms, 1045ms total)
T1468 001:542 JLINK_WriteReg(R11, 0x00000000)  returns 0x00 (0000ms, 1045ms total)
T1468 001:542 JLINK_WriteReg(R12, 0x00000000)  returns 0x00 (0000ms, 1045ms total)
T1468 001:542 JLINK_WriteReg(R13, 0x20000800)  returns 0x00 (0000ms, 1045ms total)
T1468 001:542 JLINK_WriteReg(R14, 0x20000001)  returns 0x00 (0000ms, 1045ms total)
T1468 001:542 JLINK_WriteReg(R15, 0x200001A0)  returns 0x00 (0000ms, 1045ms total)
T1468 001:542 JLINK_WriteReg(XPSR, 0x01000000)  returns 0x00 (0000ms, 1045ms total)
T1468 001:542 JLINK_WriteReg(MSP, 0x20000800)  returns 0x00 (0000ms, 1045ms total)
T1468 001:542 JLINK_WriteReg(PSP, 0x20000800)  returns 0x00 (0000ms, 1045ms total)
T1468 001:542 JLINK_WriteReg(CFBP, 0x00000000)  returns 0x00 (0000ms, 1045ms total)
T1468 001:542 JLINK_SetBPEx(Addr = 0x20000000, Type = 0xFFFFFFF2)  returns 0x0000000B (0000ms, 1045ms total)
T1468 001:542 JLINK_Go() -- CPU_WriteMem(4 bytes @ 0xE0002008) -- CPU_WriteMem(4 bytes @ 0xE000200C) -- CPU_WriteMem(4 bytes @ 0xE0002010) -- CPU_WriteMem(4 bytes @ 0xE0002014) -- CPU_WriteMem(4 bytes @ 0xE0002018) -- CPU_WriteMem(4 bytes @ 0xE000201C) (0009ms, 1045ms total)
T1468 001:551 JLINK_IsHalted()  returns FALSE (0001ms, 1054ms total)
T1468 001:604 JLINK_IsHalted() -- CPU_ReadMem(2 bytes @ 0x20000000)  returns TRUE (0006ms, 1054ms total)
T1468 001:610 JLINK_ReadReg(R15)  returns 0x20000000 (0000ms, 1054ms total)
T1468 001:610 JLINK_ClrBPEx(BPHandle = 0x0000000B)  returns 0x00 (0000ms, 1054ms total)
T1468 001:610 JLINK_ReadReg(R0)  returns 0x00000000 (0000ms, 1054ms total)
T1468 001:611 JLINK_WriteMem(0x20000274, 0x0400 Bytes, ...) -- Data:  B8 F1 00 0F 18 D1 A9 45 10 DD A9 EB 05 00 00 F0 ... -- CPU_WriteMem(1024 bytes @ 0x20000274)  returns 0x400 (0007ms, 1054ms total)
T1468 001:618 JLINK_WriteReg(R0, 0x08000800)  returns 0x00 (0000ms, 1061ms total)
T1468 001:618 JLINK_WriteReg(R1, 0x00000400)  returns 0x00 (0000ms, 1061ms total)
T1468 001:618 JLINK_WriteReg(R2, 0x20000274)  returns 0x00 (0000ms, 1061ms total)
T1468 001:618 JLINK_WriteReg(R3, 0x00000000)  returns 0x00 (0000ms, 1061ms total)
T1468 001:618 JLINK_WriteReg(R4, 0x00000000)  returns 0x00 (0000ms, 1061ms total)
T1468 001:618 JLINK_WriteReg(R5, 0x00000000)  returns 0x00 (0000ms, 1061ms total)
T1468 001:618 JLINK_WriteReg(R6, 0x00000000)  returns 0x00 (0000ms, 1061ms total)
T1468 001:618 JLINK_WriteReg(R7, 0x00000000)  returns 0x00 (0000ms, 1061ms total)
T1468 001:618 JLINK_WriteReg(R8, 0x00000000)  returns 0x00 (0000ms, 1061ms total)
T1468 001:618 JLINK_WriteReg(R9, 0x2000026C)  returns 0x00 (0000ms, 1061ms total)
T1468 001:618 JLINK_WriteReg(R10, 0x00000000)  returns 0x00 (0001ms, 1061ms total)
T1468 001:619 JLINK_WriteReg(R11, 0x00000000)  returns 0x00 (0000ms, 1062ms total)
T1468 001:619 JLINK_WriteReg(R12, 0x00000000)  returns 0x00 (0000ms, 1062ms total)
T1468 001:619 JLINK_WriteReg(R13, 0x20000800)  returns 0x00 (0000ms, 1062ms total)
T1468 001:619 JLINK_WriteReg(R14, 0x20000001)  returns 0x00 (0000ms, 1062ms total)
T1468 001:619 JLINK_WriteReg(R15, 0x200001A0)  returns 0x00 (0000ms, 1062ms total)
T1468 001:619 JLINK_WriteReg(XPSR, 0x01000000)  returns 0x00 (0000ms, 1062ms total)
T1468 001:619 JLINK_WriteReg(MSP, 0x20000800)  returns 0x00 (0000ms, 1062ms total)
T1468 001:619 JLINK_WriteReg(PSP, 0x20000800)  returns 0x00 (0000ms, 1062ms total)
T1468 001:619 JLINK_WriteReg(CFBP, 0x00000000)  returns 0x00 (0000ms, 1062ms total)
T1468 001:619 JLINK_SetBPEx(Addr = 0x20000000, Type = 0xFFFFFFF2)  returns 0x0000000C (0000ms, 1062ms total)
T1468 001:619 JLINK_Go() -- CPU_WriteMem(4 bytes @ 0xE0002008) -- CPU_WriteMem(4 bytes @ 0xE000200C) -- CPU_WriteMem(4 bytes @ 0xE0002010) -- CPU_WriteMem(4 bytes @ 0xE0002014) -- CPU_WriteMem(4 bytes @ 0xE0002018) -- CPU_WriteMem(4 bytes @ 0xE000201C) (0009ms, 1062ms total)
T1468 001:628 JLINK_IsHalted()  returns FALSE (0001ms, 1071ms total)
T1468 001:680 JLINK_IsHalted() -- CPU_ReadMem(2 bytes @ 0x20000000)  returns TRUE (0007ms, 1071ms total)
T1468 001:687 JLINK_ReadReg(R15)  returns 0x20000000 (0000ms, 1071ms total)
T1468 001:687 JLINK_ClrBPEx(BPHandle = 0x0000000C)  returns 0x00 (0000ms, 1071ms total)
T1468 001:687 JLINK_ReadReg(R0)  returns 0x00000000 (0000ms, 1071ms total)
T1468 001:687 JLINK_WriteMem(0x20000274, 0x0400 Bytes, ...) -- Data:  80 20 08 60 08 46 40 68 20 F4 FE 00 48 60 08 46 ... -- CPU_WriteMem(1024 bytes @ 0x20000274)  returns 0x400 (0007ms, 1071ms total)
T1468 001:695 JLINK_WriteReg(R0, 0x08000C00)  returns 0x00 (0000ms, 1079ms total)
T1468 001:695 JLINK_WriteReg(R1, 0x00000400)  returns 0x00 (0001ms, 1079ms total)
T1468 001:696 JLINK_WriteReg(R2, 0x20000274)  returns 0x00 (0003ms, 1080ms total)
T1468 001:703 JLINK_WriteReg(R3, 0x00000000)  returns 0x00 (0009ms, 1087ms total)
T1468 001:713 JLINK_WriteReg(R4, 0x00000000)  returns 0x00 (0001ms, 1097ms total)
T1468 001:714 JLINK_WriteReg(R5, 0x00000000)  returns 0x00 (0001ms, 1098ms total)
T1468 001:715 JLINK_WriteReg(R6, 0x00000000)  returns 0x00 (0004ms, 1099ms total)
T1468 001:719 JLINK_WriteReg(R7, 0x00000000)  returns 0x00 (0001ms, 1103ms total)
T1468 001:720 JLINK_WriteReg(R8, 0x00000000)  returns 0x00 (0000ms, 1104ms total)
T1468 001:721 JLINK_WriteReg(R9, 0x2000026C)  returns 0x00 (0000ms, 1105ms total)
T1468 001:721 JLINK_WriteReg(R10, 0x00000000)  returns 0x00 (0000ms, 1105ms total)
T1468 001:721 JLINK_WriteReg(R11, 0x00000000)  returns 0x00 (0000ms, 1105ms total)
T1468 001:721 JLINK_WriteReg(R12, 0x00000000)  returns 0x00 (0000ms, 1105ms total)
T1468 001:721 JLINK_WriteReg(R13, 0x20000800)  returns 0x00 (0000ms, 1105ms total)
T1468 001:721 JLINK_WriteReg(R14, 0x20000001)  returns 0x00 (0000ms, 1105ms total)
T1468 001:721 JLINK_WriteReg(R15, 0x200001A0)  returns 0x00 (0000ms, 1105ms total)
T1468 001:721 JLINK_WriteReg(XPSR, 0x01000000)  returns 0x00 (0000ms, 1105ms total)
T1468 001:721 JLINK_WriteReg(MSP, 0x20000800)  returns 0x00 (0001ms, 1105ms total)
T1468 001:722 JLINK_WriteReg(PSP, 0x20000800)  returns 0x00 (0000ms, 1106ms total)
T1468 001:722 JLINK_WriteReg(CFBP, 0x00000000)  returns 0x00 (0000ms, 1106ms total)
T1468 001:722 JLINK_SetBPEx(Addr = 0x20000000, Type = 0xFFFFFFF2)  returns 0x0000000D (0000ms, 1106ms total)
T1468 001:722 JLINK_Go() -- CPU_WriteMem(4 bytes @ 0xE0002008) -- CPU_WriteMem(4 bytes @ 0xE000200C) -- CPU_WriteMem(4 bytes @ 0xE0002010) -- CPU_WriteMem(4 bytes @ 0xE0002014) -- CPU_WriteMem(4 bytes @ 0xE0002018) -- CPU_WriteMem(4 bytes @ 0xE000201C) (0009ms, 1106ms total)
T1468 001:731 JLINK_IsHalted()  returns FALSE (0001ms, 1115ms total)
T1468 001:782 JLINK_IsHalted() -- CPU_ReadMem(2 bytes @ 0x20000000)  returns TRUE (0007ms, 1115ms total)
T1468 001:789 JLINK_ReadReg(R15)  returns 0x20000000 (0000ms, 1115ms total)
T1468 001:789 JLINK_ClrBPEx(BPHandle = 0x0000000D)  returns 0x00 (0000ms, 1115ms total)
T1468 001:789 JLINK_ReadReg(R0)  returns 0x00000000 (0000ms, 1115ms total)
T1468 001:790 JLINK_WriteMem(0x20000274, 0x0400 Bytes, ...) -- Data:  03 E0 57 F8 04 BB 4F F0 FF 30 61 07 4F F0 00 01 ... -- CPU_WriteMem(1024 bytes @ 0x20000274)  returns 0x400 (0007ms, 1115ms total)
T1468 001:797 JLINK_WriteReg(R0, 0x08001000)  returns 0x00 (0000ms, 1122ms total)
T1468 001:797 JLINK_WriteReg(R1, 0x00000400)  returns 0x00 (0001ms, 1122ms total)
T1468 001:798 JLINK_WriteReg(R2, 0x20000274)  returns 0x00 (0000ms, 1123ms total)
T1468 001:798 JLINK_WriteReg(R3, 0x00000000)  returns 0x00 (0000ms, 1123ms total)
T1468 001:798 JLINK_WriteReg(R4, 0x00000000)  returns 0x00 (0000ms, 1123ms total)
T1468 001:798 JLINK_WriteReg(R5, 0x00000000)  returns 0x00 (0000ms, 1123ms total)
T1468 001:798 JLINK_WriteReg(R6, 0x00000000)  returns 0x00 (0000ms, 1123ms total)
T1468 001:798 JLINK_WriteReg(R7, 0x00000000)  returns 0x00 (0000ms, 1123ms total)
T1468 001:798 JLINK_WriteReg(R8, 0x00000000)  returns 0x00 (0000ms, 1123ms total)
T1468 001:798 JLINK_WriteReg(R9, 0x2000026C)  returns 0x00 (0000ms, 1123ms total)
T1468 001:798 JLINK_WriteReg(R10, 0x00000000)  returns 0x00 (0000ms, 1123ms total)
T1468 001:798 JLINK_WriteReg(R11, 0x00000000)  returns 0x00 (0000ms, 1123ms total)
T1468 001:798 JLINK_WriteReg(R12, 0x00000000)  returns 0x00 (0000ms, 1123ms total)
T1468 001:798 JLINK_WriteReg(R13, 0x20000800)  returns 0x00 (0000ms, 1123ms total)
T1468 001:798 JLINK_WriteReg(R14, 0x20000001)  returns 0x00 (0000ms, 1123ms total)
T1468 001:798 JLINK_WriteReg(R15, 0x200001A0)  returns 0x00 (0000ms, 1123ms total)
T1468 001:798 JLINK_WriteReg(XPSR, 0x01000000)  returns 0x00 (0000ms, 1123ms total)
T1468 001:798 JLINK_WriteReg(MSP, 0x20000800)  returns 0x00 (0000ms, 1123ms total)
T1468 001:798 JLINK_WriteReg(PSP, 0x20000800)  returns 0x00 (0000ms, 1123ms total)
T1468 001:798 JLINK_WriteReg(CFBP, 0x00000000)  returns 0x00 (0000ms, 1123ms total)
T1468 001:798 JLINK_SetBPEx(Addr = 0x20000000, Type = 0xFFFFFFF2)  returns 0x0000000E (0000ms, 1123ms total)
T1468 001:798 JLINK_Go() -- CPU_WriteMem(4 bytes @ 0xE0002008) -- CPU_WriteMem(4 bytes @ 0xE000200C) -- CPU_WriteMem(4 bytes @ 0xE0002010) -- CPU_WriteMem(4 bytes @ 0xE0002014) -- CPU_WriteMem(4 bytes @ 0xE0002018) -- CPU_WriteMem(4 bytes @ 0xE000201C) (0026ms, 1123ms total)
T1468 001:824 JLINK_IsHalted()  returns FALSE (0001ms, 1149ms total)
T1468 001:876 JLINK_IsHalted() -- CPU_ReadMem(2 bytes @ 0x20000000)  returns TRUE (0006ms, 1149ms total)
T1468 001:882 JLINK_ReadReg(R15)  returns 0x20000000 (0001ms, 1149ms total)
T1468 001:883 JLINK_ClrBPEx(BPHandle = 0x0000000E)  returns 0x00 (0000ms, 1150ms total)
T1468 001:883 JLINK_ReadReg(R0)  returns 0x00000000 (0000ms, 1150ms total)
T1468 001:883 JLINK_WriteMem(0x20000274, 0x0400 Bytes, ...) -- Data:  A7 48 00 88 FF 28 DC DD A9 A0 FF F7 19 FD 00 20 ... -- CPU_WriteMem(1024 bytes @ 0x20000274)  returns 0x400 (0008ms, 1150ms total)
T1468 001:891 JLINK_WriteReg(R0, 0x08001400)  returns 0x00 (0000ms, 1158ms total)
T1468 001:891 JLINK_WriteReg(R1, 0x000003E4)  returns 0x00 (0000ms, 1158ms total)
T1468 001:891 JLINK_WriteReg(R2, 0x20000274)  returns 0x00 (0000ms, 1158ms total)
T1468 001:891 JLINK_WriteReg(R3, 0x00000000)  returns 0x00 (0000ms, 1158ms total)
T1468 001:891 JLINK_WriteReg(R4, 0x00000000)  returns 0x00 (0000ms, 1158ms total)
T1468 001:891 JLINK_WriteReg(R5, 0x00000000)  returns 0x00 (0000ms, 1158ms total)
T1468 001:891 JLINK_WriteReg(R6, 0x00000000)  returns 0x00 (0000ms, 1158ms total)
T1468 001:891 JLINK_WriteReg(R7, 0x00000000)  returns 0x00 (0000ms, 1158ms total)
T1468 001:891 JLINK_WriteReg(R8, 0x00000000)  returns 0x00 (0000ms, 1158ms total)
T1468 001:891 JLINK_WriteReg(R9, 0x2000026C)  returns 0x00 (0000ms, 1158ms total)
T1468 001:891 JLINK_WriteReg(R10, 0x00000000)  returns 0x00 (0000ms, 1158ms total)
T1468 001:891 JLINK_WriteReg(R11, 0x00000000)  returns 0x00 (0000ms, 1158ms total)
T1468 001:891 JLINK_WriteReg(R12, 0x00000000)  returns 0x00 (0000ms, 1158ms total)
T1468 001:891 JLINK_WriteReg(R13, 0x20000800)  returns 0x00 (0000ms, 1158ms total)
T1468 001:891 JLINK_WriteReg(R14, 0x20000001)  returns 0x00 (0000ms, 1158ms total)
T1468 001:891 JLINK_WriteReg(R15, 0x200001A0)  returns 0x00 (0000ms, 1158ms total)
T1468 001:891 JLINK_WriteReg(XPSR, 0x01000000)  returns 0x00 (0000ms, 1158ms total)
T1468 001:891 JLINK_WriteReg(MSP, 0x20000800)  returns 0x00 (0000ms, 1158ms total)
T1468 001:891 JLINK_WriteReg(PSP, 0x20000800)  returns 0x00 (0000ms, 1158ms total)
T1468 001:891 JLINK_WriteReg(CFBP, 0x00000000)  returns 0x00 (0000ms, 1158ms total)
T1468 001:891 JLINK_SetBPEx(Addr = 0x20000000, Type = 0xFFFFFFF2)  returns 0x0000000F (0000ms, 1158ms total)
T1468 001:891 JLINK_Go() -- CPU_WriteMem(4 bytes @ 0xE0002008) -- CPU_WriteMem(4 bytes @ 0xE000200C) -- CPU_WriteMem(4 bytes @ 0xE0002010) -- CPU_WriteMem(4 bytes @ 0xE0002014) -- CPU_WriteMem(4 bytes @ 0xE0002018) -- CPU_WriteMem(4 bytes @ 0xE000201C) (0009ms, 1158ms total)
T1468 001:900 JLINK_IsHalted()  returns FALSE (0001ms, 1167ms total)
T1468 001:952 JLINK_IsHalted() -- CPU_ReadMem(2 bytes @ 0x20000000)  returns TRUE (0008ms, 1167ms total)
T1468 001:960 JLINK_ReadReg(R15)  returns 0x20000000 (0000ms, 1167ms total)
T1468 001:960 JLINK_ClrBPEx(BPHandle = 0x0000000F)  returns 0x00 (0000ms, 1167ms total)
T1468 001:960 JLINK_ReadReg(R0)  returns 0x00000000 (0000ms, 1167ms total)
T1468 001:960 JLINK_WriteReg(R0, 0x00000002)  returns 0x00 (0000ms, 1167ms total)
T1468 001:960 JLINK_WriteReg(R1, 0x000003E4)  returns 0x00 (0000ms, 1167ms total)
T1468 001:960 JLINK_WriteReg(R2, 0x20000274)  returns 0x00 (0000ms, 1167ms total)
T1468 001:960 JLINK_WriteReg(R3, 0x00000000)  returns 0x00 (0000ms, 1167ms total)
T1468 001:960 JLINK_WriteReg(R4, 0x00000000)  returns 0x00 (0000ms, 1167ms total)
T1468 001:960 JLINK_WriteReg(R5, 0x00000000)  returns 0x00 (0000ms, 1167ms total)
T1468 001:960 JLINK_WriteReg(R6, 0x00000000)  returns 0x00 (0000ms, 1167ms total)
T1468 001:960 JLINK_WriteReg(R7, 0x00000000)  returns 0x00 (0000ms, 1167ms total)
T1468 001:960 JLINK_WriteReg(R8, 0x00000000)  returns 0x00 (0001ms, 1167ms total)
T1468 001:961 JLINK_WriteReg(R9, 0x2000026C)  returns 0x00 (0000ms, 1168ms total)
T1468 001:961 JLINK_WriteReg(R10, 0x00000000)  returns 0x00 (0000ms, 1168ms total)
T1468 001:961 JLINK_WriteReg(R11, 0x00000000)  returns 0x00 (0000ms, 1168ms total)
T1468 001:961 JLINK_WriteReg(R12, 0x00000000)  returns 0x00 (0000ms, 1168ms total)
T1468 001:961 JLINK_WriteReg(R13, 0x20000800)  returns 0x00 (0000ms, 1168ms total)
T1468 001:961 JLINK_WriteReg(R14, 0x20000001)  returns 0x00 (0000ms, 1168ms total)
T1468 001:961 JLINK_WriteReg(R15, 0x2000007C)  returns 0x00 (0000ms, 1168ms total)
T1468 001:961 JLINK_WriteReg(XPSR, 0x01000000)  returns 0x00 (0000ms, 1168ms total)
T1468 001:961 JLINK_WriteReg(MSP, 0x20000800)  returns 0x00 (0000ms, 1168ms total)
T1468 001:961 JLINK_WriteReg(PSP, 0x20000800)  returns 0x00 (0000ms, 1168ms total)
T1468 001:961 JLINK_WriteReg(CFBP, 0x00000000)  returns 0x00 (0000ms, 1168ms total)
T1468 001:961 JLINK_SetBPEx(Addr = 0x20000000, Type = 0xFFFFFFF2)  returns 0x00000010 (0000ms, 1168ms total)
T1468 001:961 JLINK_Go() -- CPU_WriteMem(4 bytes @ 0xE0002008) -- CPU_WriteMem(4 bytes @ 0xE000200C) -- CPU_WriteMem(4 bytes @ 0xE0002010) -- CPU_WriteMem(4 bytes @ 0xE0002014) -- CPU_WriteMem(4 bytes @ 0xE0002018) -- CPU_WriteMem(4 bytes @ 0xE000201C) (0010ms, 1168ms total)
T1468 001:971 JLINK_IsHalted() -- CPU_ReadMem(2 bytes @ 0x20000000)  returns TRUE (0007ms, 1178ms total)
T1468 001:978 JLINK_ReadReg(R15)  returns 0x20000000 (0000ms, 1178ms total)
T1468 001:978 JLINK_ClrBPEx(BPHandle = 0x00000010)  returns 0x00 (0000ms, 1178ms total)
T1468 001:978 JLINK_ReadReg(R0)  returns 0x00000000 (0000ms, 1178ms total)
T1468 002:050 JLINK_WriteMem(0x20000000, 0x0274 Bytes, ...) -- Data:  00 BE 0A E0 0D 78 2D 06 68 40 08 24 40 00 00 D3 ... -- CPU_WriteMem(628 bytes @ 0x20000000)  returns 0x274 (0006ms, 1178ms total)
T1468 002:056 JLINK_WriteReg(R0, 0x08000000)  returns 0x00 (0000ms, 1184ms total)
T1468 002:056 JLINK_WriteReg(R1, 0x017D7840)  returns 0x00 (0000ms, 1184ms total)
T1468 002:056 JLINK_WriteReg(R2, 0x00000003)  returns 0x00 (0000ms, 1184ms total)
T1468 002:056 JLINK_WriteReg(R3, 0x00000000)  returns 0x00 (0000ms, 1184ms total)
T1468 002:056 JLINK_WriteReg(R4, 0x00000000)  returns 0x00 (0000ms, 1184ms total)
T1468 002:056 JLINK_WriteReg(R5, 0x00000000)  returns 0x00 (0000ms, 1184ms total)
T1468 002:056 JLINK_WriteReg(R6, 0x00000000)  returns 0x00 (0000ms, 1184ms total)
T1468 002:056 JLINK_WriteReg(R7, 0x00000000)  returns 0x00 (0000ms, 1184ms total)
T1468 002:056 JLINK_WriteReg(R8, 0x00000000)  returns 0x00 (0000ms, 1184ms total)
T1468 002:056 JLINK_WriteReg(R9, 0x2000026C)  returns 0x00 (0000ms, 1184ms total)
T1468 002:056 JLINK_WriteReg(R10, 0x00000000)  returns 0x00 (0000ms, 1184ms total)
T1468 002:056 JLINK_WriteReg(R11, 0x00000000)  returns 0x00 (0000ms, 1184ms total)
T1468 002:056 JLINK_WriteReg(R12, 0x00000000)  returns 0x00 (0000ms, 1184ms total)
T1468 002:056 JLINK_WriteReg(R13, 0x20000800)  returns 0x00 (0000ms, 1184ms total)
T1468 002:056 JLINK_WriteReg(R14, 0x20000001)  returns 0x00 (0000ms, 1184ms total)
T1468 002:056 JLINK_WriteReg(R15, 0x20000038)  returns 0x00 (0000ms, 1184ms total)
T1468 002:056 JLINK_WriteReg(XPSR, 0x01000000)  returns 0x00 (0000ms, 1184ms total)
T1468 002:056 JLINK_WriteReg(MSP, 0x20000800)  returns 0x00 (0000ms, 1184ms total)
T1468 002:056 JLINK_WriteReg(PSP, 0x20000800)  returns 0x00 (0000ms, 1184ms total)
T1468 002:056 JLINK_WriteReg(CFBP, 0x00000000)  returns 0x00 (0000ms, 1184ms total)
T1468 002:056 JLINK_SetBPEx(Addr = 0x20000000, Type = 0xFFFFFFF2) -- CPU_ReadMem(2 bytes @ 0x20000000)  returns 0x00000011 (0002ms, 1184ms total)
T1468 002:058 JLINK_Go() -- CPU_WriteMem(2 bytes @ 0x20000000) -- CPU_WriteMem(4 bytes @ 0xE0002008) -- CPU_WriteMem(4 bytes @ 0xE000200C) -- CPU_WriteMem(4 bytes @ 0xE0002010) -- CPU_WriteMem(4 bytes @ 0xE0002014) -- CPU_WriteMem(4 bytes @ 0xE0002018) -- CPU_WriteMem(4 bytes @ 0xE000201C) (0009ms, 1186ms total)
T1468 002:067 JLINK_IsHalted() -- CPU_ReadMem(2 bytes @ 0x20000000)  returns TRUE (0008ms, 1195ms total)
T1468 002:075 JLINK_ReadReg(R15)  returns 0x20000000 (0000ms, 1195ms total)
T1468 002:075 JLINK_ClrBPEx(BPHandle = 0x00000011)  returns 0x00 (0000ms, 1195ms total)
T1468 002:075 JLINK_ReadReg(R0)  returns 0x00000000 (0000ms, 1195ms total)
T1468 002:075 JLINK_WriteReg(R0, 0xFFFFFFFF)  returns 0x00 (0000ms, 1195ms total)
T1468 002:075 JLINK_WriteReg(R1, 0x08000000)  returns 0x00 (0000ms, 1195ms total)
T1468 002:075 JLINK_WriteReg(R2, 0x000017E4)  returns 0x00 (0000ms, 1195ms total)
T1468 002:075 JLINK_WriteReg(R3, 0x04C11DB7)  returns 0x00 (0000ms, 1195ms total)
